! 3/17/2025 12:14:50 PM
! C:\ANRITSUVNA\DATA\2025-03-17 DD MZM A2 SUBSTRATES\S1_DD_MXM_TXSR2.S4P
! CHANNEL.1
! TR.MEASUREMENT
! CORRECTED.DATA
! RF.CORRECTION: FULL.FOUR.PORT.CAL.PORT.1.2.3.4
! AVERAGING.OFF
! IF.BANDWIDTH: 1KHZ
! SWEEPTYPE:  FREQ.SWEEP(Linear)
! Reference Plane Port Info
! PORT:              PORT1              PORT2              PORT3              PORT4             
! DISTANCE:          0  m               0  m               0  m               0  m              
! TIME:              0  s               0  s               0  s               0  s              
! PHASE.OFFSET:      0 째                0 째                0 째                0 째               
! LOSS:              0  dB              0  dB              0  dB              0  dB             
! REF.LOSS:          0  dB              0  dB              0  dB              0  dB             
! REF.FREQ:          0  Hz              0  Hz              0  Hz              0  Hz             
! Power Info
! POWER:             -10  dBm           -10  dBm           -10  dBm           -10  dBm          
! EFF.POWER:         -10  dBm           -10  dBm           -10  dBm           -10  dBm          
! SOURCE.ATTEN:      0  dB              0  dB              0  dB              0  dB             
! TEST.ATTEN:        0  dB              0  dB              0  dB              0  dB             
# GHZ S RI R 50.0
! FREQ.GHZ         S11RE        S11IM         S12RE        S12IM         S13RE        S13IM         S14RE        S14IM         
!		       S21RE        S21IM         S22RE        S22IM         S23RE        S23IM         S24RE        S24IM         
!		       S31RE        S31IM         S32RE        S32IM         S33RE        S33IM         S34RE        S34IM         
!		       S41RE        S41IM         S42RE        S42IM         S43RE        S43IM         S44RE        S44IM         
!; PortSelection: Port_1234
   0.010000000     0.0071574   -0.0001733     0.0004075    0.0003482     0.9975784   -0.0056955    -0.0004117   -0.0002073 
 		       0.0004251    0.0003696     0.0066255   -0.0003233    -0.0003942   -0.0001987     0.9940539   -0.0051557
 		       0.9974846   -0.0052338    -0.0004408   -0.0001953    -0.0028774    0.0010569     0.0004328    0.0003764
 		      -0.0004434   -0.0001548     0.9944674   -0.0056615     0.0004107    0.0003966     0.0057162    0.0002990
   0.079990000     0.0070681    0.0001050     0.0007607    0.0027816     0.9964173   -0.0396177    -0.0007152   -0.0011491 
 		       0.0007761    0.0027787     0.0063722    0.0005003    -0.0007385   -0.0011647     0.9922677   -0.0398704
 		       0.9967389   -0.0404035    -0.0007491   -0.0011260    -0.0021088    0.0008469     0.0007636    0.0027485
 		      -0.0007493   -0.0010862     0.9927452   -0.0395990     0.0007535    0.0026978     0.0076580   -0.0003655
   0.149980000     0.0096103   -0.0000820     0.0012518    0.0048900     0.9930142   -0.0743220    -0.0009869   -0.0019102 
 		       0.0012621    0.0048322     0.0081275   -0.0011239    -0.0010010   -0.0019202     0.9897375   -0.0742015
 		       0.9932887   -0.0734546    -0.0009932   -0.0018711    -0.0010626    0.0002270     0.0012094    0.0047943
 		      -0.0009796   -0.0018984     0.9900712   -0.0745430     0.0012051    0.0047900     0.0068331   -0.0012321
   0.219970000     0.0105728   -0.0026059     0.0018248    0.0068559     0.9878075   -0.1082375    -0.0012666   -0.0026158 
 		       0.0018188    0.0068105     0.0086827   -0.0022740    -0.0013048   -0.0026250     0.9849603   -0.1077136
 		       0.9888629   -0.1078681    -0.0012844   -0.0026231     0.0000904   -0.0000774     0.0017391    0.0068148
 		      -0.0012671   -0.0025486     0.9854394   -0.1077167     0.0017525    0.0067549     0.0090695   -0.0036789
   0.289960000     0.0099565   -0.0039102     0.0024742    0.0087819     0.9834937   -0.1407404    -0.0015504   -0.0032048 
 		       0.0024567    0.0087248     0.0109385   -0.0050690    -0.0015920   -0.0032688     0.9788778   -0.1406413
 		       0.9840079   -0.1400547    -0.0015969   -0.0032610     0.0021752   -0.0025190     0.0023211    0.0087672
 		      -0.0015423   -0.0031813     0.9795818   -0.1404725     0.0023416    0.0087185     0.0104722   -0.0056460
   0.359950000     0.0108850   -0.0056929     0.0032583    0.0106522     0.9770545   -0.1731516    -0.0019471   -0.0038241 
 		       0.0032311    0.0106163     0.0102801   -0.0084743    -0.0018824   -0.0038474     0.9727188   -0.1730470
 		       0.9778292   -0.1731320    -0.0019064   -0.0038690     0.0024812   -0.0037457     0.0030590    0.0105768
 		      -0.0018576   -0.0037679     0.9727923   -0.1733962     0.0030618    0.0105968     0.0102797   -0.0080013
   0.429940000     0.0124575   -0.0082281     0.0040602    0.0124649     0.9696782   -0.2054066    -0.0022052   -0.0043642 
 		       0.0040585    0.0124463     0.0109413   -0.0091974    -0.0022857   -0.0044832     0.9653222   -0.2054902
 		       0.9701537   -0.2048428    -0.0022471   -0.0044832     0.0039170   -0.0051491     0.0038886    0.0123497
 		      -0.0021728   -0.0043971     0.9660518   -0.2055824     0.0038711    0.0123249     0.0113518   -0.0113937
   0.499930000     0.0124070   -0.0116077     0.0050482    0.0140672     0.9607568   -0.2365732    -0.0026340   -0.0050380 
 		       0.0050687    0.0140643     0.0110090   -0.0125512    -0.0027007   -0.0051567     0.9561244   -0.2378631
 		       0.9614072   -0.2371070    -0.0026569   -0.0050532     0.0035892   -0.0082045     0.0047675    0.0140827
 		      -0.0024838   -0.0049499     0.9562696   -0.2368202     0.0048198    0.0140241     0.0112738   -0.0131755
   0.569920000     0.0129968   -0.0138171     0.0062122    0.0155496     0.9513238   -0.2672320    -0.0029669   -0.0054261 
 		       0.0058651    0.0158539     0.0116962   -0.0145047    -0.0031024   -0.0054985     0.9471418   -0.2682287
 		       0.9519278   -0.2670932    -0.0031139   -0.0056235     0.0038338   -0.0095320     0.0057992    0.0156746
 		      -0.0030592   -0.0055791     0.9483773   -0.2681265     0.0056165    0.0156083     0.0112850   -0.0160445
   0.639910000     0.0118216   -0.0158882     0.0073625    0.0170775     0.9411744   -0.2985935    -0.0032620   -0.0060649 
 		       0.0070747    0.0171521     0.0118993   -0.0176342    -0.0034889   -0.0062183     0.9363298   -0.2989416
 		       0.9416633   -0.2983341    -0.0036993   -0.0060286     0.0047923   -0.0114019     0.0065825    0.0171679
 		      -0.0032972   -0.0061472     0.9369919   -0.2989269     0.0067020    0.0169922     0.0107473   -0.0189055
   0.709900000     0.0103071   -0.0198695     0.0084910    0.0186250     0.9298031   -0.3293571    -0.0036627   -0.0065438 
 		       0.0085832    0.0185146     0.0093156   -0.0211231    -0.0039443   -0.0065743     0.9258813   -0.3296818
 		       0.9310271   -0.3291245    -0.0037409   -0.0066512     0.0043975   -0.0137335     0.0079619    0.0185290
 		      -0.0035874   -0.0066076     0.9264655   -0.3295561     0.0078203    0.0185405     0.0102387   -0.0205589
   0.779890000     0.0094332   -0.0221544     0.0095023    0.0197339     0.9180588   -0.3583281    -0.0040747   -0.0069632 
 		       0.0096363    0.0198579     0.0083609   -0.0227793    -0.0042926   -0.0070863     0.9134969   -0.3591137
 		       0.9192905   -0.3579703    -0.0041116   -0.0070200     0.0041573   -0.0155912     0.0090053    0.0197709
 		      -0.0039805   -0.0069830     0.9135262   -0.3579990     0.0090793    0.0197138     0.0095780   -0.0239108
   0.849880000     0.0078704   -0.0251282     0.0110841    0.0207622     0.9049674   -0.3877825    -0.0046441   -0.0074399 
 		       0.0110044    0.0210293     0.0080890   -0.0269316    -0.0047563   -0.0076298     0.9004472   -0.3880247
 		       0.9060618   -0.3876564    -0.0045842   -0.0075931     0.0034924   -0.0189422     0.0103024    0.0209719
 		      -0.0044955   -0.0073184     0.9001106   -0.3879802     0.0103159    0.0209949     0.0091587   -0.0262912
   0.919870000     0.0076674   -0.0277128     0.0123874    0.0219467     0.8921688   -0.4161590    -0.0050719   -0.0079054 
 		       0.0123278    0.0220008     0.0065168   -0.0290345    -0.0051520   -0.0080522     0.8865364   -0.4165398
 		       0.8924398   -0.4166609    -0.0052243   -0.0079839     0.0029991   -0.0209002     0.0115974    0.0220809
 		      -0.0050091   -0.0080120     0.8869206   -0.4168192     0.0114595    0.0220690     0.0079010   -0.0296641
   0.989860000     0.0069228   -0.0291349     0.0139167    0.0228370     0.8766611   -0.4455118    -0.0056255   -0.0083945 
 		       0.0138171    0.0229171     0.0057678   -0.0320162    -0.0056730   -0.0084473     0.8709306   -0.4449871
 		       0.8763216   -0.4457839    -0.0057998   -0.0084189     0.0024821   -0.0209823     0.0128275    0.0230380
 		      -0.0054849   -0.0084631     0.8715848   -0.4454793     0.0128230    0.0230509     0.0066672   -0.0320285
   1.059850000     0.0048770   -0.0324098     0.0153199    0.0237013     0.8597164   -0.4741337    -0.0061195   -0.0088806 
 		       0.0152373    0.0236229     0.0023877   -0.0346860    -0.0063882   -0.0088770     0.8556792   -0.4737785
 		       0.8608677   -0.4723969    -0.0062569   -0.0090167     0.0012723   -0.0242827     0.0141923    0.0238533
 		      -0.0060835   -0.0088135     0.8566408   -0.4730148     0.0142282    0.0238176     0.0045873   -0.0333681
   1.129840000     0.0037134   -0.0350794     0.0166489    0.0242452     0.8436068   -0.4997426    -0.0065446   -0.0093242 
 		       0.0167308    0.0243609     0.0007730   -0.0364351    -0.0069634   -0.0093453     0.8386469   -0.5001679
 		       0.8437865   -0.4997229    -0.0067646   -0.0092827    -0.0011116   -0.0260236     0.0155267    0.0245961
 		      -0.0066732   -0.0092143     0.8391963   -0.4997703     0.0155416    0.0245595     0.0019180   -0.0372411
   1.199830000     0.0020457   -0.0379818     0.0181613    0.0248103     0.8267168   -0.5259661    -0.0072228   -0.0097610 
 		       0.0181733    0.0247777    -0.0018849   -0.0398935    -0.0076049   -0.0098021     0.8215624   -0.5272235
 		       0.8273526   -0.5252044    -0.0075387   -0.0096827    -0.0018414   -0.0285450     0.0168723    0.0252429
 		      -0.0072065   -0.0096704     0.8220937   -0.5259506     0.0168405    0.0252110     0.0007636   -0.0389557
   1.269820000    -0.0014515   -0.0405104     0.0196638    0.0253044     0.8074191   -0.5529655    -0.0077387   -0.0101587 
 		       0.0195984    0.0252546    -0.0050147   -0.0409839    -0.0080512   -0.0101797     0.8030207   -0.5533894
 		       0.8087314   -0.5521620    -0.0081474   -0.0103288    -0.0036722   -0.0310375     0.0181692    0.0257624
 		      -0.0077204   -0.0101514     0.8033580   -0.5524584     0.0182132    0.0256690    -0.0022875   -0.0420220
   1.339810000    -0.0045281   -0.0421026     0.0209935    0.0253488     0.7895180   -0.5772188    -0.0084348   -0.0104553 
 		       0.0210340    0.0254122    -0.0055083   -0.0437422    -0.0087685   -0.0104502     0.7836948   -0.5778679
 		       0.7902622   -0.5764888    -0.0086633   -0.0104070    -0.0070445   -0.0317846     0.0195047    0.0261431
 		      -0.0084427   -0.0103623     0.7844828   -0.5773574     0.0195274    0.0260039    -0.0046027   -0.0443071
   1.409800000    -0.0072174   -0.0429534     0.0225111    0.0255544     0.7685546   -0.6034546    -0.0091020   -0.0109498 
 		       0.0224572    0.0256109    -0.0095331   -0.0452517    -0.0097076   -0.0107536     0.7632630   -0.6028517
 		       0.7698198   -0.6025778    -0.0096739   -0.0106706    -0.0072260   -0.0337556     0.0208491    0.0262516
 		      -0.0094201   -0.0107578     0.7642934   -0.6024137     0.0209462    0.0262498    -0.0072826   -0.0453448
   1.479790000    -0.0103285   -0.0448237     0.0240424    0.0255081     0.7485218   -0.6264483    -0.0100153   -0.0111106 
 		       0.0237911    0.0255080    -0.0110948   -0.0464534    -0.0102891   -0.0111370     0.7421739   -0.6260616
 		       0.7495418   -0.6255810    -0.0100935   -0.0112276    -0.0109825   -0.0367412     0.0220352    0.0264858
 		      -0.0099707   -0.0113256     0.7430129   -0.6255322     0.0221160    0.0265518    -0.0100767   -0.0478864
   1.549780000    -0.0120609   -0.0461205     0.0250902    0.0253753     0.7274346   -0.6499164    -0.0106314   -0.0113574 
 		       0.0251072    0.0253701    -0.0146190   -0.0485068    -0.0111219   -0.0115618     0.7216309   -0.6494392
 		       0.7288712   -0.6494023    -0.0108504   -0.0115377    -0.0127405   -0.0370049     0.0233045    0.0264318
 		      -0.0105943   -0.0115207     0.7225555   -0.6492618     0.0234046    0.0265121    -0.0119236   -0.0494238
   1.619770000    -0.0154480   -0.0469291     0.0263067    0.0250350     0.7055901   -0.6720321    -0.0116088   -0.0116479 
 		       0.0263799    0.0250782    -0.0179806   -0.0493134    -0.0118562   -0.0116918     0.6988627   -0.6706328
 		       0.7069947   -0.6719983    -0.0119683   -0.0114324    -0.0132807   -0.0390804     0.0245069    0.0263523
 		      -0.0117260   -0.0115344     0.6988300   -0.6698844     0.0244825    0.0261759    -0.0144682   -0.0491292
   1.689760000    -0.0175561   -0.0471145     0.0275399    0.0246773     0.6828138   -0.6941356    -0.0125499   -0.0116758 
 		       0.0276112    0.0249025    -0.0196545   -0.0507848    -0.0128888   -0.0117206     0.6771438   -0.6925088
 		       0.6840657   -0.6934527    -0.0127985   -0.0119021    -0.0162835   -0.0406816     0.0256863    0.0260551
 		      -0.0125212   -0.0118257     0.6783533   -0.6921087     0.0255491    0.0260056    -0.0167830   -0.0509885
   1.759750000    -0.0193627   -0.0495623     0.0287519    0.0242879     0.6597919   -0.7152178    -0.0134982   -0.0120352 
 		       0.0285526    0.0241696    -0.0235534   -0.0519890    -0.0137128   -0.0119435     0.6534415   -0.7132120
 		       0.6611950   -0.7143886    -0.0134786   -0.0120323    -0.0174726   -0.0403792     0.0267298    0.0259358
 		      -0.0132894   -0.0121426     0.6551049   -0.7129315     0.0266738    0.0258525    -0.0205669   -0.0533726
   1.829740000    -0.0230114   -0.0509337     0.0295766    0.0235143     0.6354403   -0.7351870    -0.0142534   -0.0122402 
 		       0.0294055    0.0237187    -0.0255811   -0.0516137    -0.0145282   -0.0121289     0.6285803   -0.7329818
 		       0.6367503   -0.7349065    -0.0143230   -0.0120255    -0.0196581   -0.0417961     0.0275353    0.0253735
 		      -0.0138961   -0.0122468     0.6302463   -0.7327557     0.0275869    0.0254120    -0.0248787   -0.0542861
   1.899730000    -0.0252433   -0.0513542     0.0307138    0.0229686     0.6113819   -0.7526641    -0.0153781   -0.0122970 
 		       0.0307589    0.0229515    -0.0298782   -0.0537859    -0.0154778   -0.0121875     0.6056657   -0.7508292
 		       0.6126720   -0.7535219    -0.0156702   -0.0119911    -0.0223947   -0.0410790     0.0285955    0.0248138
 		      -0.0152733   -0.0121662     0.6058133   -0.7512421     0.0283860    0.0246924    -0.0263527   -0.0549617
   1.969720000    -0.0278251   -0.0521192     0.0315208    0.0222853     0.5872325   -0.7712849    -0.0163829   -0.0123744 
 		       0.0315143    0.0224310    -0.0328276   -0.0510728    -0.0164616   -0.0120383     0.5807472   -0.7693903
 		       0.5890036   -0.7714274    -0.0163558   -0.0121513    -0.0235389   -0.0423201     0.0292921    0.0242011
 		      -0.0162628   -0.0125178     0.5806621   -0.7694803     0.0291233    0.0241119    -0.0301596   -0.0555795
   2.039710000    -0.0336593   -0.0518386     0.0321341    0.0211277     0.5613871   -0.7899097    -0.0172802   -0.0125238 
 		       0.0321599    0.0213412    -0.0343849   -0.0532968    -0.0176393   -0.0121277     0.5534348   -0.7886489
 		       0.5624245   -0.7895166    -0.0172931   -0.0119551    -0.0272781   -0.0448112     0.0297501    0.0237536
 		      -0.0170322   -0.0125044     0.5549542   -0.7878686     0.0296575    0.0236660    -0.0329318   -0.0566525
   2.109700000    -0.0365445   -0.0518489     0.0330544    0.0204954     0.5349806   -0.8061120    -0.0183088   -0.0124266 
 		       0.0329230    0.0203462    -0.0401891   -0.0529314    -0.0185444   -0.0122298     0.5281222   -0.8043374
 		       0.5357234   -0.8064348    -0.0184743   -0.0123869    -0.0307560   -0.0435879     0.0305485    0.0231051
 		      -0.0179931   -0.0122357     0.5291595   -0.8043905     0.0305031    0.0230900    -0.0359644   -0.0556853
   2.179690000    -0.0398519   -0.0503346     0.0335573    0.0192579     0.5093184   -0.8230423    -0.0194333   -0.0125300 
 		       0.0334005    0.0194839    -0.0419668   -0.0519436    -0.0193428   -0.0122135     0.5012375   -0.8202612
 		       0.5110865   -0.8233355    -0.0193152   -0.0122422    -0.0318723   -0.0442621     0.0308375    0.0224685
 		      -0.0192942   -0.0124318     0.5018067   -0.8199832     0.0305882    0.0223412    -0.0396346   -0.0556021
   2.249680000    -0.0431048   -0.0488582     0.0333865    0.0182383     0.4807107   -0.8386719    -0.0203464   -0.0122800 
 		       0.0333476    0.0186092    -0.0467085   -0.0532475    -0.0205012   -0.0119050     0.4756688   -0.8338167
 		       0.4821595   -0.8391521    -0.0205642   -0.0117177    -0.0354663   -0.0449670     0.0311725    0.0218767
 		      -0.0201096   -0.0123500     0.4759638   -0.8340882     0.0312859    0.0216034    -0.0417099   -0.0565586
   2.319670000    -0.0419011   -0.0505521     0.0337244    0.0171923     0.4536747   -0.8497411    -0.0213895   -0.0121545 
 		       0.0336732    0.0173573    -0.0496935   -0.0525756    -0.0217079   -0.0115179     0.4478550   -0.8484678
 		       0.4556749   -0.8503782    -0.0215490   -0.0115627    -0.0351552   -0.0420492     0.0315507    0.0202826
 		      -0.0210383   -0.0120381     0.4482782   -0.8489297     0.0314179    0.0200671    -0.0463542   -0.0565489
   2.389660000    -0.0436684   -0.0464748     0.0334512    0.0149795     0.4271446   -0.8618549    -0.0224961   -0.0116045 
 		       0.0335379    0.0150124    -0.0499545   -0.0513553    -0.0227361   -0.0111777     0.4196451   -0.8591577
 		       0.4292502   -0.8624046    -0.0225194   -0.0109709    -0.0358470   -0.0468011     0.0313562    0.0198858
 		      -0.0224948   -0.0114885     0.4201785   -0.8595924     0.0314035    0.0200094    -0.0484153   -0.0543979
   2.459650000    -0.0467464   -0.0467393     0.0356481    0.0153111     0.3988683   -0.8774694    -0.0237446   -0.0114296 
 		       0.0354619    0.0155461    -0.0543783   -0.0496568    -0.0239615   -0.0110555     0.3926930   -0.8705235
 		       0.3999553   -0.8779562    -0.0237685   -0.0107537    -0.0438858   -0.0422393     0.0325307    0.0190778
 		      -0.0237780   -0.0113343     0.3922465   -0.8708993     0.0325619    0.0189208    -0.0516377   -0.0558715
   2.529640000    -0.0522045   -0.0484800     0.0337314    0.0139727     0.3712572   -0.8874382    -0.0247683   -0.0109738 
 		       0.0335658    0.0140780    -0.0578401   -0.0477077    -0.0248723   -0.0106141     0.3649741   -0.8826206
 		       0.3693825   -0.8892668    -0.0250881   -0.0105184    -0.0446087   -0.0423925     0.0313348    0.0178237
 		      -0.0247447   -0.0111038     0.3622391   -0.8864254     0.0313435    0.0178547    -0.0572856   -0.0525749
   2.599630000    -0.0566545   -0.0459993     0.0334091    0.0128480     0.3408327   -0.8979610    -0.0259279   -0.0104528 
 		       0.0335348    0.0127123    -0.0624159   -0.0475399    -0.0261223   -0.0100246     0.3352692   -0.8941000
 		       0.3394680   -0.8992977    -0.0260558   -0.0101065    -0.0471043   -0.0444430     0.0309656    0.0167775
 		      -0.0259885   -0.0103186     0.3329409   -0.8961114     0.0309979    0.0167461    -0.0592939   -0.0521941
   2.669620000    -0.0619768   -0.0446939     0.0329365    0.0112943     0.3123073   -0.9083620    -0.0270146   -0.0099338 
 		       0.0331328    0.0115290    -0.0656906   -0.0443206    -0.0275216   -0.0094683     0.3057723   -0.9041668
 		       0.3115201   -0.9088361    -0.0270763   -0.0094818    -0.0513516   -0.0416297     0.0305456    0.0159118
